!Keysight Technologies,N5231B,MY58421610,A.17.35.05
!Date: Tuesday, August 13, 2024 16:25:06
!Correction: Sdd11(Cdelta 4-Port  ) 
!Sdc11(Cdelta 4-Port  ) 
!Sdd12(Cdelta 4-Port  ) 
!Sdc12(Cdelta 4-Port  ) 
!Scd11(Cdelta 4-Port  ) 
!Scc11(Cdelta 4-Port  ) 
!Scd12(Cdelta 4-Port  ) 
!Scc12(Cdelta 4-Port  ) 
!Sdd21(Cdelta 4-Port  ) 
!Sdc21(Cdelta 4-Port  ) 
!Sdd22(Cdelta 4-Port  ) 
!Sdc22(Cdelta 4-Port  ) 
!Scd21(Cdelta 4-Port  ) 
!Scc21(Cdelta 4-Port  ) 
!Scd22(Cdelta 4-Port  ) 
!Scc22(Cdelta 4-Port  ) 
!Balanced Topology: BBAL
!S4P File: Measurements: <Sdd11,Sdc11,Sdd12,Sdc12>,
!<Scd11,Scc11,Scd12,Scc12>,
!<Sdd21,Sdc21,Sdd22,Sdc22>,
!<Scd21,Scc21,Scd22,Scc22>:
# Hz S  RI   R 50
13486513 0.095368892 0.016304303 0.057880059 0.017001111 1.1582048 -0.56844151 0.28011373 -0.14424299
0.057763465 0.016984718 0.15810266 0.070712067 0.28849989 -0.14239228 1.1244824 -0.57615888
1.1587055 -0.56887954 0.28856653 -0.14208049 0.048845254 0.0028762557 -0.0015012184 -0.0015300834
0.28026998 -0.1439674 1.124989 -0.57659256 -0.0015591788 -0.0015305206 0.087645784 0.036506899
26973026 0.06815625 -0.015899673 0.053703696 0.0014607366 0.78712833 -0.96787196 0.16778937 -0.22135365
0.053495012 0.001550559 0.19810203 0.047789983 0.17852637 -0.22086933 0.73881078 -0.97034836
0.78666812 -0.96796823 0.17803028 -0.22007175 0.03376577 -0.017260751 -0.0040852688 -0.00072217651
0.16735736 -0.22065943 0.73838115 -0.9704563 -0.0041514342 -0.00064661214 0.11882976 0.022292282
40459539 0.023301231 -0.0091443276 0.038966183 -0.0072158007 0.30873865 -1.1813114 0.056872107 -0.2464958
0.038886908 -0.0069575701 0.200478 -0.006701 0.065836981 -0.25290376 0.26676056 -1.1504245
0.30873409 -1.180779 0.06610091 -0.25176963 0.0089440895 -0.016719135 -0.005239333 -0.0001045611
0.057087705 -0.24547802 0.26679257 -1.1499367 -0.0051999572 2.2100518e-005 0.12530395 -0.021639122
53946052 0.016666228 0.0036215608 0.045730021 -0.011679712 -0.20051697 -1.1842657 -0.053680472 -0.23235528
0.045894649 -0.011425215 0.25515294 -0.069964349 -0.040769726 -0.2422999 -0.26297015 -1.133954
-0.19994098 -1.1839591 -0.039733186 -0.24165955 -0.00076175458 -0.015469905 -0.0056561274 0.00025458849
-0.052799329 -0.2317777 -0.26241776 -1.1337118 -0.0055047264 0.00029538295 0.15728633 -0.073685952
67432565 0.01970505 -0.018208001 0.044157393 -0.038049381 -0.65627706 -0.9876039 -0.13565671 -0.17725304
0.04442171 -0.038034707 0.24536113 -0.21528716 -0.1286791 -0.19562557 -0.69013208 -0.8954587
-0.65485197 -0.98803061 -0.12757799 -0.19586769 -0.0098380661 -0.025212755 -0.0062057655 0.0027982104
-0.1346841 -0.17740998 -0.68878371 -0.89593178 -0.0060897898 0.0026682573 0.13502587 -0.16606975
80919078 -0.0036603827 -0.045247659 0.015039887 -0.060194641 -0.99361002 -0.62464654 -0.18318731 -0.10181031
0.015170425 -0.060353696 0.11084457 -0.33626613 -0.19057177 -0.12072597 -0.95856935 -0.5289129
-0.99279594 -0.62532222 -0.18990979 -0.12115607 -0.027942419 -0.028013261 -0.0034677235 0.008121198
-0.18249358 -0.10211032 -0.95787346 -0.52953303 -0.0035248685 0.007960896 0.034981228 -0.23804989
94405591 -0.029036826 -0.036660068 -0.009901287 -0.059404932 -1.1496837 -0.16303745 -0.20259206 -0.016122438
-0.0099800471 -0.059550591 -0.02067899 -0.38829681 -0.21483916 -0.031547375 -1.0850208 -0.07780844
-1.149972 -0.16486257 -0.21493848 -0.032321699 -0.040601034 -0.011114648 0.0020078786 0.013927634
-0.20261057 -0.016839154 -1.0854204 -0.079486072 0.0018577599 0.013899035 -0.061563578 -0.25877258
107892104 -0.020998627 -0.011162446 -0.023126896 -0.04966921 -1.105924 0.31514588 -0.18591993 0.07034687
-0.023313986 -0.049694538 -0.15621448 -0.3783606 -0.20216125 0.057441488 -1.012946 0.3878302
-1.1077588 0.31409866 -0.20270418 0.057123519 -0.036012799 0.013140019 0.0089274328 0.01506803
-0.18637054 0.0699789 -1.0147765 0.38697219 0.0088004339 0.015173513 -0.1605231 -0.24101387
121378617 0.0021019464 -0.0079857651 -0.036198266 -0.040343162 -0.8756721 0.72887492 -0.13061571 0.13494013
-0.036319565 -0.040198069 -0.30306143 -0.30003181 -0.15562361 0.12984075 -0.73322183 0.75118101
-0.87766695 0.72965407 -0.15607423 0.13011655 -0.023741657 0.030045176 0.010873532 0.013313216
-0.13109361 0.13511164 -0.73501813 0.75202042 0.010879301 0.013484469 -0.26848146 -0.1520777
134865130 0.0039766128 -0.01849694 -0.043104894 -0.029376047 -0.50373292 1.0132021 -0.066256836 0.17261131
-0.043087423 -0.029180549 -0.3718456 -0.18267845 -0.088195853 0.17712444 -0.38265544 0.98810995
-0.50498509 1.0145237 -0.088451922 0.17742106 -0.012412637 0.041958787 0.011644541 0.010108751
-0.066588625 0.17285606 -0.38378522 0.98944503 0.011756375 0.010219838 -0.29751304 -0.045759097
148351643 -0.011333443 -0.011448275 -0.055170234 -0.0059979223 -0.051024526 1.1234293 0.011114366 0.17756417
-0.05501711 -0.0058789738 -0.4323045 -0.013028339 -0.008700341 0.19291355 0.061746031 1.0414015
-0.050439537 1.1249274 -0.0080056973 0.19313282 0.0036953026 0.048936822 0.012065545 0.0054067159
0.011705257 0.1778315 0.062406063 1.0427787 0.012256993 0.0053547709 -0.30744132 0.0855342
161838156 -0.0093880929 0.0037273909 -0.046849962 0.020419069 0.40507782 1.0420882 0.080659382 0.15113422
-0.046677001 0.020324588 -0.39734808 0.16582359 0.069712758 0.17547594 0.47790295 0.90705597
0.40584326 1.0426888 0.069935426 0.17492229 0.025330586 0.040895719 0.013439796 -0.0034724958
0.080907814 0.15070711 0.47869924 0.90760928 0.013454418 -0.003640346 -0.24946181 0.20452496
175324669 0.0028959953 -0.0040920861 -0.027657244 0.031362817 0.78680837 0.78482157 0.12402809 0.10078783
-0.027554955 0.031262904 -0.29173824 0.29744044 0.13144505 0.12711047 0.75969249 0.61885881
0.78772676 0.78499234 0.13149552 0.12635955 0.041613653 0.016630556 0.012232125 -0.015059395
0.12417486 0.10010674 0.76053929 0.6189667 0.012111912 -0.015191141 -0.150278 0.25874507
188811182 -0.0062031653 -0.029711416 -0.020279936 0.025320664 1.0300076 0.39890754 0.15861475 0.047619667
-0.020263217 0.025154529 -0.18436424 0.35562038 0.16681434 0.064164788 0.98208332 0.29713255
1.0308731 0.39833415 0.16618477 0.063487902 0.046244912 -0.012404323 0.0072698109 -0.023832858
0.15805498 0.046922468 0.98291445 0.29660559 0.0071041202 -0.023793597 -0.029122591 0.28550702
202297695 -0.034360927 -0.037898552 -0.014230425 0.022162724 1.0975317 -0.049719959 0.16243771 -0.030640371
-0.014305302 0.022064544 -0.024144597 0.35936499 0.17514181 -0.011062868 1.0251079 -0.17316845
1.0976174 -0.050696552 0.17412233 -0.011120513 0.040942486 -0.03734947 0.00015684031 -0.025678035
0.16144022 -0.030762739 1.0250325 -0.17409885 9.1541559e-005 -0.025498468 0.088643163 0.26124203
215784208 -0.056164369 -0.022028631 -0.010786263 0.021795088 0.97988468 -0.48420298 0.12519437 -0.093545996
-0.010904111 0.02179111 0.093694195 0.30071461 0.15087271 -0.078764409 0.83064234 -0.58426666
0.97896791 -0.48486152 0.14995939 -0.078367688 0.025377721 -0.054556001 -0.0062496713 -0.022222182
0.12424295 -0.093222246 0.82968718 -0.58479089 -0.0061447904 -0.022083949 0.17356558 0.18021147
229270721 -0.065139249 -0.00095612183 -0.013494438 0.021095127 0.69810504 -0.8341862 0.068213984 -0.13219725
-0.013543856 0.02112562 0.12917343 0.22974892 0.10282636 -0.13031006 0.48018029 -0.87023926
0.69741482 -0.8337599 0.10283382 -0.12942642 -0.0004523145 -0.058071926 -0.013456931 -0.013767668
0.068132102 -0.13129584 0.47965831 -0.86971635 -0.013296943 -0.013759416 0.18074115 0.12009357
242757234 -0.070633858 0.0220576 -0.016743105 0.037656948 0.30181143 -1.0392404 0.0062247925 -0.12614933
-0.016722068 0.037659369 0.13512094 0.26574743 0.040071554 -0.15416235 0.059282243 -0.88164222
0.30196914 -1.0384393 0.040450308 -0.15382279 -0.027371636 -0.045084789 -0.017983556 -0.0021236059
0.0066642612 -0.1256505 0.059587598 -0.88100225 -0.017845707 -0.0021996731 0.20033182 0.13281469
256243747 -0.06684009 0.04521583 0.022450428 0.028310655 -0.14023986 -1.0675849 -0.01421616 -0.12881188
0.022565901 0.028201064 0.40393212 0.15742174 -0.019120097 -0.15514083 -0.12465239 -0.88008964
-0.13914825 -1.0675076 -0.018986735 -0.15519692 -0.046852857 -0.024135131 -0.017475966 0.0051739076
-0.013985164 -0.12891909 -0.12369686 -0.88009375 -0.017487518 0.0050430559 0.35744825 -0.014299683
269730260 -0.058960184 0.071738586 0.0071173217 0.0098192301 -0.55515409 -0.91714382 -0.082965307 -0.11837886
0.0070131044 0.0096742278 0.30622068 -0.092610493 -0.082717612 -0.13408332 -0.56876206 -0.81407458
-0.55456698 -0.91802895 -0.082909524 -0.13414782 -0.060031194 -0.00036715902 -0.021716865 0.013319722
-0.083114535 -0.11850086 -0.56828845 -0.81494582 -0.021832354 0.013336848 0.20714977 -0.18088441
283216773 -0.03023758 0.094814032 0.0075730281 0.015720502 -0.87185204 -0.61489725 -0.12393939 -0.072472751
0.0073325774 0.015748443 0.20178252 -0.17200223 -0.12618336 -0.088512696 -0.86904448 -0.50655985
-0.87230968 -0.61584377 -0.12673217 -0.087760024 -0.062875934 0.028010409 -0.017196581 0.023390338
-0.12449972 -0.07182198 -0.86965185 -0.50745869 -0.017206008 0.023543881 0.098371096 -0.20123239
296703286 0.012534134 0.10442987 0.010925346 0.030059237 -1.0407815 -0.21237665 -0.14382938 -0.0043295547
0.010821477 0.030293344 0.071177259 -0.15942135 -0.14962545 -0.02683818 -1.0282964 -0.049140245
-1.0418229 -0.21324891 -0.1491445 -0.025954723 -0.04623507 0.05596558 -0.0058841044 0.032986514
-0.14345689 -0.003591489 -1.0294672 -0.049874783 -0.0057461774 0.033079185 0.0062358826 -0.15889296
310189799 0.062210426 0.092366219 0.033526774 0.043169614 -1.0348017 0.22171566 -0.12133261 0.06219954
0.03361512 0.043351278 0.044028357 -0.069950469 -0.1431583 0.035918228 -0.90379453 0.43919718
-1.0362443 0.2217823 -0.14160489 0.035879239 -0.014753947 0.06931366 0.012984819 0.033656105
-0.1201129 0.06220435 -0.9051522 0.43962991 0.013129849 0.033613354 0.011198476 -0.095032349
323676312 0.10433631 0.058398813 0.079114266 0.031920105 -0.85694391 0.61589015 -0.057317004 0.091884471
0.079117738 0.032069717 0.20293869 -0.041089084 -0.11272283 0.086718261 -0.45224655 0.70650721
-0.8577863 0.61662954 -0.11192824 0.085116804 0.016761433 0.067326806 0.029774107 0.020419974
-0.056425177 0.090790711 -0.45256376 0.70738536 0.029963216 0.020244403 0.12285739 -0.1723538
337162825 0.11275066 0.01219978 0.042670283 -0.032915901 -0.53653258 0.90549463 -0.064209945 0.087855622
0.043175153 -0.033018965 -0.037840337 -0.4182058 -0.072332196 0.12182867 -0.45967489 0.66130376
-0.53731126 0.90681708 -0.073068693 0.12032014 0.04451583 0.057552181 0.026289944 0.0096465284
-0.064665429 0.086154185 -0.46034354 0.66225958 0.025892889 0.0093615353 -0.22458024 -0.27335584
350649338 0.10834407 -0.018069498 0.030198043 -0.0059887972 -0.12749657 1.0417411 -0.0096274205 0.1282852
0.030183721 -0.0062967762 -0.20145887 -0.1125003 -0.013929192 0.14061359 -0.082872778 0.97770131
-0.12705475 1.0430546 -0.015796829 0.14024749 0.068714038 0.036580257 0.030700851 0.0022838758
-0.011450712 0.12783873 -0.082361579 0.97893202 0.030442446 0.0025363807 -0.21633402 -0.032506175
364135851 0.093694411 -0.0486526 0.041128516 -0.019434299 0.30071023 1.001734 0.050365575 0.11172851
0.040978957 -0.019488061 -0.096603267 -0.0089507513 0.044557557 0.12787755 0.39800999 0.89425582
0.30164602 1.0022962 0.043267451 0.12946387 0.08111988 0.0018126499 0.030275825 -0.01221379
0.048994292 0.11314952 0.39887053 0.89471275 0.030358164 -0.011876993 -0.1605944 0.019144088
377622364 0.06413734 -0.07621333 0.025207918 -0.029633965 0.6743862 0.79446548 0.094397873 0.084424213
0.025126219 -0.029499168 -0.093993545 0.054020077 0.087223351 0.10210755 0.75648928 0.6655038
0.67523116 0.79443711 0.087999888 0.10400207 0.070417054 -0.037192013 0.025335072 -0.022245526
0.094958529 0.086271107 0.75721091 0.66544801 0.025625288 -0.022188753 -0.090299129 0.072838418
391108877 0.020104948 -0.096416637 0.014807172 -0.043137401 0.93305445 0.45615897 0.11917981 0.031479221
0.014904415 -0.043055225 -0.024636684 0.073789045 0.12114369 0.056679577 0.97424304 0.24635868
0.93350655 0.45562911 0.12303486 0.056833886 0.041682392 -0.060915813 0.013598073 -0.034670372
0.12077795 0.031813677 0.97457826 0.24585959 0.013778801 -0.034817491 -0.041521933 0.067474417
404595390 -0.029758548 -0.093218625 -0.0067241341 -0.054717682 1.0343652 0.044499308 0.11870639 -0.025926773
-0.00664833 -0.054777741 0.019529905 0.0078480523 0.13034792 0.0038859025 0.96563685 -0.2286925
1.0342289 0.04395169 0.13120864 0.0024354123 0.012797571 -0.063924976 -0.002586009 -0.040335
0.11946865 -0.026885906 0.9653973 -0.22904366 -0.0025383551 -0.040481016 -0.041733332 0.035560269
418081903 -0.060019854 -0.06829799 -0.024442714 -0.051762946 0.96336615 -0.37300068 0.069312289 -0.07345289
-0.024510235 -0.051835623 0.034616962 -0.049058065 0.12008479 -0.049691729 0.56387502 -0.62545073
0.962897 -0.37291139 0.11912173 -0.050811015 -0.0087675191 -0.056862228 -0.022486104 -0.02931964
0.068993568 -0.074119277 0.56366909 -0.62521285 -0.022468638 -0.029421266 -0.081311919 0.024574844
431568416 -0.065120056 -0.041662306 -0.044460922 -0.022214014 0.73125035 -0.7256248 0.077043794 -0.056619186
-0.044398643 -0.022356285 -0.10057565 0.089829497 0.09073548 -0.089140914 0.62220979 -0.47531247
0.7312426 -0.72516072 0.089666717 -0.089066848 -0.027430454 -0.044304781 -0.022715382 -0.021531707
0.076029569 -0.057057858 0.6221047 -0.47501683 -0.022935245 -0.021613641 0.050156809 0.17395575
445054929 -0.063877143 -0.031415846 -0.042199295 -0.029271673 0.37750003 -0.95526737 0.033817299 -0.10613871
-0.042317711 -0.029213946 0.047284558 -0.034500051 0.04367369 -0.11916246 0.27373779 -0.91753012
0.37793428 -0.95472223 0.042960938 -0.11812435 -0.043330316 -0.022653682 -0.037110254 -0.0091158245
0.033194948 -0.10530294 0.27419904 -0.91714525 -0.037214585 -0.0090320576 0.074236698 0.079010203
458541442 -0.06930358 -0.011750506 -0.057131201 -0.00214836 -0.036099389 -1.0233139 -0.011972584 -0.11174634
-0.057183459 -0.0021005012 -0.011007896 -0.011827866 -0.0065688938 -0.12078049 -0.14617825 -0.94020504
-0.035107791 -1.0232619 -0.0060056895 -0.11941461 -0.044868756 0.0046131415 -0.037505455 0.0085495636
-0.011487652 -0.11059614 -0.14525855 -0.9402898 -0.037442889 0.0086416081 0.098561198 0.0049858056
472027955 -0.061993539 0.015652524 -0.053371459 0.013734995 -0.44169611 -0.92165035 -0.064270496 -0.092778817
-0.053283237 0.013848098 0.012574274 -0.081207037 -0.054388572 -0.11124011 -0.58415186 -0.77101934
-0.44078979 -0.92251188 -0.052700654 -0.11075808 -0.029753704 0.019212017 -0.032850303 0.023850476
-0.062814623 -0.09240628 -0.5834471 -0.77199149 -0.032767095 0.023821395 0.070142381 -0.032490931
485514468 -0.036647916 0.029940143 -0.048163529 0.028860046 -0.77250886 -0.66599536 -0.09423244 -0.056843594
-0.04799496 0.028865144 -0.037705351 -0.12113246 -0.094844289 -0.074073076 -0.83295667 -0.45039642
-0.77243251 -0.66737062 -0.093225643 -0.075246856 -0.012802564 0.01312073 -0.016969765 0.028726256
-0.092792213 -0.057898469 -0.8331008 -0.45165181 -0.016977577 0.028667077 0.010443617 -0.044120654
499000981 -0.016018305 0.015344397 -0.02897135 0.034068033 -0.97302508 -0.29990676 -0.11125094 -0.0037327278
-0.028841523 0.033933006 -0.077447608 -0.13372992 -0.11396372 -0.032735109 -0.96932554 -0.0054631382
-0.97392249 -0.30120128 -0.11376412 -0.034931242 -0.0067749042 -0.0033473615 0.0025657751 0.031941012
-0.1110905 -0.0056197289 -0.97044492 -0.0064561069 0.0024867337 0.031892292 -0.00059622526 -0.10037918
512487494 -0.024586355 -0.0063795568 -0.026797133 0.026659373 -1.0095632 0.11622761 -0.08667396 0.050285462
-0.026886592 0.026360791 -0.23391692 -0.17449452 -0.11797012 0.017182525 -0.74706101 0.467785
-1.0111244 0.11558431 -0.11973275 0.015783746 -0.0087893074 -0.017452301 0.021569286 0.021933887
-0.088010222 0.049225923 -0.74851847 0.46776962 0.021502158 0.022097956 -0.14487484 -0.087168008
525974007 -0.047074907 -0.0028153849 -0.019912343 0.07206808 -0.87414694 0.51034975 -0.055776574 0.02892963
-0.020162776 0.072431721 -0.24422838 0.29785517 -0.092406988 0.059340842 -0.50466502 0.25657833
-0.87628698 0.51106805 -0.09411066 0.059505887 -0.016738273 -0.026618514 0.023206513 0.019592527
-0.057308044 0.028429253 -0.50599277 0.25689101 0.02332891 0.019481702 0.026573747 0.098304875
539460520 -0.054200396 0.011322666 0.022609571 0.05372306 -0.59401894 0.81520712 -0.057623379 0.080375679
0.022640739 0.053863022 -0.094131209 0.13950369 -0.066463888 0.090843171 -0.48460439 0.76939309
-0.59534168 0.81717062 -0.067652151 0.092374414 -0.03131916 -0.025917022 0.045613907 0.013519949
-0.058840044 0.081722081 -0.48572123 0.77124161 0.0455973 0.013528049 -0.025304563 -0.041996289
552947033 -0.055447504 0.022081878 0.039783493 0.027270742 -0.21643971 0.98155439 -0.012222674 0.10503972
0.039806802 0.027328126 -0.096911728 0.074873194 -0.026508035 0.11026456 -0.058508754 0.95591789
-0.21601292 0.98414755 -0.025887694 0.11207507 -0.050377484 -0.01121777 0.049844816 -0.0032989634
-0.011748541 0.1066329 -0.057843149 0.95830977 0.049887978 -0.0033035763 -0.084512383 0.0075384136
566433546 -0.064688154 0.036548384 0.037058968 0.0092249773 0.19492602 0.98242313 0.037793823 0.096832506
0.037204184 0.0092450362 -0.1399477 0.15389925 0.023369545 0.11583044 0.37999594 0.83664209
0.19712058 0.98382723 0.025242798 0.1164174 -0.063695446 0.02002883 0.040323887 -0.022671402
0.039228275 0.097445518 0.38221011 0.83754289 0.040310126 -0.02278485 -0.077790305 0.10960668
579920059 -0.072189219 0.069714993 0.031006822 -0.002772443 0.56962669 0.81820703 0.078330643 0.072066844
0.031153159 -0.0028726135 -0.11131677 0.20490161 0.068352222 0.091270357 0.70506704 0.62132192
0.57174194 0.81745142 0.070073642 0.089852989 -0.061455764 0.059383333 0.024911489 -0.033405669
0.079783261 0.071065344 0.706882 0.62031209 0.024819119 -0.03348536 -0.052847747 0.1395079
593406572 -0.054413706 0.11731259 0.021421218 -0.0014727286 0.84611011 0.51947373 0.10084632 0.023903646
0.021500448 -0.0017276518 -0.065900356 0.31215453 0.099917941 0.055368133 0.90199542 0.21282917
0.84626168 0.517793 0.099685282 0.052616004 -0.038935084 0.096348338 0.0024873025 -0.041227814
0.10093987 0.02180003 0.90173852 0.2113436 0.0021915752 -0.041152366 0.036090873 0.23188353
606893085 -0.0022937432 0.15352705 0.026463898 0.0079087634 0.97868425 0.1367009 0.091118604 -0.028562427
0.026228782 0.0075643472 0.10392966 0.4277671 0.11400776 0.0062645264 0.82697988 -0.23540376
0.97776091 0.13649079 0.11124226 0.0049314769 0.0033939928 0.12017868 -0.017287076 -0.035566866
0.089360803 -0.030098822 0.82628274 -0.23537308 -0.017297745 -0.034942482 0.24033597 0.22923462
620379598 0.072374746 0.15692076 0.070904672 -0.0028389134 0.94689363 -0.26451495 0.041025549 -0.042928152
0.070333011 -0.0024157837 0.5584076 0.30748358 0.095270909 -0.046064995 0.43040037 -0.36093572
0.94689751 -0.26430961 0.09342929 -0.044390224 0.058186874 0.12171236 -0.017184969 -0.024196316
0.03861979 -0.04250823 0.43030834 -0.36088324 -0.016019424 -0.024490522 0.42549765 -0.16032541
633866111 0.13463345 0.12412763 0.02605 -0.053827651 0.76103729 -0.61751264 0.069426924 -0.05441165
0.026256524 -0.053658687 0.22905046 -0.085991904 0.074946314 -0.064636365 0.6830833 -0.54379547
0.76100129 -0.61665618 0.073975973 -0.061845597 0.11432095 0.097393587 -0.037542909 -0.024716444
0.068217225 -0.05156257 0.68302983 -0.5430069 -0.037889093 -0.025055937 -0.0027445424 -0.06291125
647352624 0.18671709 0.077322915 0.016514488 -0.036290925 0.44878429 -0.86839509 0.027391709 -0.091256171
0.016592665 -0.036241937 0.24143046 0.023842689 0.044463538 -0.093810655 0.27215412 -0.89399052
0.44950563 -0.86773795 0.046634749 -0.091524303 0.15707266 0.049221527 -0.039255254 0.0041113291
0.029225333 -0.088871881 0.2729204 -0.89345098 -0.039380509 0.0040086182 0.15728173 -0.019407123
660839137 0.21986455 0.012756847 0.015075849 -0.033064615 0.061953932 -0.97140384 -0.01839881 -0.090901896
