!Keysight Technologies,N5231B,MY58421610,A.17.35.05
!Date: Tuesday, August 13, 2024 16:43:17
!Correction: Sdd11(Cdelta 4-Port  ) 
!Sdc11(Cdelta 4-Port  ) 
!Sdd12(Cdelta 4-Port  ) 
!Sdc12(Cdelta 4-Port  ) 
!Scd11(Cdelta 4-Port  ) 
!Scc11(Cdelta 4-Port  ) 
!Scd12(Cdelta 4-Port  ) 
!Scc12(Cdelta 4-Port  ) 
!Sdd21(Cdelta 4-Port  ) 
!Sdc21(Cdelta 4-Port  ) 
!Sdd22(Cdelta 4-Port  ) 
!Sdc22(Cdelta 4-Port  ) 
!Scd21(Cdelta 4-Port  ) 
!Scc21(Cdelta 4-Port  ) 
!Scd22(Cdelta 4-Port  ) 
!Scc22(Cdelta 4-Port  ) 
!Balanced Topology: BBAL
!S4P File: Measurements: <Sdd11,Sdc11,Sdd12,Sdc12>,
!<Scd11,Scc11,Scd12,Scc12>,
!<Sdd21,Sdc21,Sdd22,Sdc22>,
!<Scd21,Scc21,Scd22,Scc22>:
# Hz S  RI   R 50
13486513 0.12325072 -0.038743138 0.031113308 0.055676907 1.0938886 -0.55169618 0.34045607 -0.15767303
0.030977413 0.055641189 0.17981604 0.019864544 0.34785968 -0.15663888 1.0676433 -0.56002539
1.0941663 -0.55196726 0.34809765 -0.15629968 0.087948225 0.0339702 -0.038894586 -0.030215133
0.34078586 -0.15734491 1.0679348 -0.56028807 -0.03894816 -0.030224673 0.12211731 0.063979134
26973026 0.015446543 -0.036323294 0.094442055 0.0037530176 0.74462289 -0.9129374 0.21083412 -0.2677784
0.094229929 0.003826607 0.14463848 0.036309317 0.21808125 -0.27169853 0.70106196 -0.92293614
0.74418163 -0.91280293 0.21761513 -0.27111059 0.053178374 0.039186206 -0.018982584 -0.051046066
0.21046886 -0.26728392 0.70064741 -0.92280602 -0.019056261 -0.050982263 0.12806293 0.073898822
40459539 -0.0064673331 0.041757718 0.053087249 -0.066778794 0.3036575 -1.1136627 0.071921453 -0.31080851
0.053024568 -0.066526458 0.17303234 0.033049628 0.073236875 -0.31491536 0.25811142 -1.079362
0.3036761 -1.1129069 0.073384546 -0.31401512 0.016142307 0.058727115 -0.0051938556 -0.072338834
0.071994208 -0.31002921 0.25817457 -1.0786421 -0.005184751 -0.072214447 0.11758004 0.049547825
53946052 0.050937045 0.032064863 0.0064786249 -0.043840714 -0.1724776 -1.1242615 -0.074682526 -0.30137846
0.0066256588 -0.043600518 0.28575513 -0.045560636 -0.067312703 -0.30035272 -0.23284209 -1.06961
-0.17163666 -1.1238487 -0.066529848 -0.2997987 -0.0055527599 0.053128622 0.0092690066 -0.070027985
-0.074051753 -0.30091023 -0.2319836 -1.0693021 0.0093940478 -0.069931492 0.13164531 0.0045704241
67432565 0.041292816 -0.062186472 0.02609146 -0.011710569 -0.60249645 -0.95058692 -0.19478883 -0.22217304
0.026328826 -0.011684569 0.25579792 -0.24923857 -0.18153785 -0.23038182 -0.62408036 -0.8620826
-0.60090268 -0.95107651 -0.18064383 -0.23055398 -0.036512498 0.01926025 0.028086694 -0.05128387
-0.19401012 -0.22229098 -0.62259454 -0.86265695 0.028226404 -0.051340289 0.092310712 -0.097469553
80919078 -0.049563132 -0.095856011 0.056410026 -0.037290405 -0.93195301 -0.62160027 -0.25269833 -0.10112662
0.056552857 -0.037433218 0.10610949 -0.36963299 -0.24696574 -0.12360913 -0.92347366 -0.53982496
-0.93115604 -0.6224187 -0.24646842 -0.12391517 -0.079296045 -0.0063760467 0.046599068 -0.024639804
-0.25224063 -0.10133326 -0.92281711 -0.5406068 0.046619385 -0.024782659 0.011451095 -0.19281635
94405591 -0.080297612 -0.028127922 0.020406393 -0.086579673 -1.1009367 -0.18737033 -0.24374042 0.010616004
0.02034257 -0.086754918 -0.049700052 -0.37418866 -0.25839642 -0.0056945235 -1.05267 -0.11636281
-1.1012988 -0.18927518 -0.25852743 -0.0064355955 -0.095588475 -0.0016221963 0.053180639 -0.0066130878
-0.2438053 0.0099374726 -1.0530912 -0.11815691 0.053066645 -0.0066709314 -0.10325138 -0.22805026
107892104 -0.021276152 0.019829057 -0.039330326 -0.081324808 -1.059396 0.27564827 -0.2237317 0.097433463
-0.039487943 -0.081358999 -0.13603239 -0.36452696 -0.23980466 0.092373341 -0.99074894 0.35781541
-1.0611911 0.27452311 -0.24040067 0.092042826 -0.077213481 -0.011818049 0.042716239 0.029016793
-0.22424988 0.097078666 -0.99257046 0.35685694 0.042617872 0.02909934 -0.1812568 -0.24757007
121378617 0.045738973 -0.017919376 -0.079897895 -0.02421198 -0.85009307 0.67357683 -0.16636989 0.17307331
-0.080067769 -0.024094477 -0.26564619 -0.335531 -0.17595072 0.17602299 -0.70963311 0.71690464
-0.85202324 0.67417693 -0.17644674 0.17637959 -0.03249386 -0.027136162 0.012700684 0.062277507
-0.16687602 0.17332828 -0.71141469 0.717668 0.012723188 0.062407136 -0.25433147 -0.19511199
134865130 0.013326092 -0.069541797 -0.048615921 0.016649827 -0.51278698 0.95673543 -0.077716887 0.23157489
-0.04861749 0.016874483 -0.35802928 -0.23848957 -0.083520398 0.22696939 -0.38864759 0.93538302
-0.51424086 0.95800328 -0.083741754 0.22727308 -0.010040447 -0.029217048 0.0043313764 0.076615736
-0.078044131 0.23183274 -0.38993773 0.93665457 0.0044095553 0.076691389 -0.25990418 -0.11206487
148351643 -0.040636301 -0.023716275 -0.033207469 0.0069577433 -0.084987253 1.079199 0.037949286 0.23838153
-0.033051871 0.0070995586 -0.44804931 -0.034512758 0.020205282 0.23594478 0.023274273 0.99272454
-0.084441781 1.0807647 0.020962611 0.23621267 0.01501956 -0.01461087 -0.0057317745 0.068274222
0.038593043 0.2387118 0.023915529 0.99414974 -0.0055541992 0.068229258 -0.26172602 0.0092423409
161838156 -0.01323292 0.048709117 -0.04719102 -0.00047929259 0.35647142 1.0206246 0.13724357 0.18267393
-0.047000658 -0.0005451967 -0.39080238 0.18034817 0.11589946 0.19569592 0.4157708 0.89478719
0.35720056 1.0212741 0.11618771 0.19509655 0.053149402 0.0049846275 -0.021924909 0.039162088
0.13755456 0.18220225 0.41651899 0.8953504 -0.021938138 0.03903795 -0.19900896 0.1392335
175324669 0.054367755 0.038246997 -0.053502396 0.02375978 0.737023 0.78683197 0.17882973 0.097017914
-0.053396203 0.02365688 -0.26881647 0.30044216 0.17513502 0.12507218 0.71228576 0.63773227
0.73795813 0.78702486 0.17522947 0.12433833 0.08915823 0.0056850566 -0.042200673 0.0092319371
0.17898908 0.096324943 0.71313828 0.6378659 -0.042281825 0.009108495 -0.094988428 0.21450661
188811182 0.047130618 -0.034248136 -0.026445214 0.048802778 0.98669803 0.41988096 0.19781858 0.027868748
-0.026405584 0.048643321 -0.16301873 0.3481943 0.20752604 0.04162728 0.95053953 0.33281747
0.98756498 0.41936725 0.20696293 0.040935241 0.094888315 -0.0080703162 -0.045546386 -0.0096782763
0.19733672 0.027174026 0.95133847 0.33226228 -0.045704558 -0.0096473228 0.0082400516 0.26238424
202297695 -0.025107641 -0.057066262 0.025472082 0.033699475 1.0672452 -0.010269672 0.19253342 -0.057559576
0.025402633 0.033592865 -0.044974156 0.34989199 0.19762306 -0.046163853 1.015395 -0.13998376
1.0673183 -0.011199087 0.19666494 -0.046229556 0.068417668 -0.013662793 -0.028954353 -0.029262949
0.19162011 -0.057687618 1.0153743 -0.14088134 -0.029005788 -0.0291149 0.1060167 0.26850796
215784208 -0.070405841 -0.016964724 0.032747105 -0.0085188607 0.97042233 -0.43673974 0.14943555 -0.13055663
0.03263529 -0.0085157892 0.073181227 0.32321364 0.15636967 -0.11623278 0.82255489 -0.55210501
0.96954852 -0.43745869 0.15549619 -0.11585566 0.027400615 -0.0035242962 -0.0092176562 -0.054029129
0.14851145 -0.13026339 0.82166314 -0.5526613 -0.0091171106 -0.05390336 0.16667226 0.21512258
229270721 -0.057638414 0.016368425 -0.0071360175 -0.01589323 0.71225625 -0.78902423 0.071656659 -0.18229829
-0.0071682087 -0.015886154 0.11949024 0.24780531 0.093197033 -0.16430867 0.49105626 -0.83571684
0.71149307 -0.78869236 0.093227133 -0.16344771 -0.0077048163 0.0074315248 -0.0094842426 -0.059712835
0.071605146 -0.18136032 0.49044156 -0.83523887 -0.0093399603 -0.059697755 0.15406558 0.16954884
242757234 -0.045031417 0.0039055608 -0.024166983 0.032956216 0.33425042 -1.0072448 -0.016327657 -0.17584696
-0.024149422 0.032934111 0.11927433 0.26379895 0.022288226 -0.18026574 0.079117358 -0.85583234
0.33438855 -1.0063894 0.022737205 -0.17991498 -0.040637091 0.0085407216 -0.00092267431 -0.037114158
-0.015824676 -0.17533988 0.079443336 -0.85502064 -0.00079246983 -0.037195243 0.15260482 0.17669307
256243747 -0.06464418 -0.0051092664 0.027535094 0.04952782 -0.10454494 -1.0523971 -0.059422895 -0.1562054
0.027637012 0.049430341 0.40809309 0.16332504 -0.053570449 -0.18173176 -0.071191519 -0.85076201
-0.1034899 -1.0521833 -0.053355169 -0.18183917 -0.075776398 0.00040610321 0.012335555 -0.013080866
-0.059099212 -0.15641485 -0.070312917 -0.85061526 0.012313161 -0.013218537 0.31026629 0.038281068
269730260 -0.091802642 0.02863162 0.031144118 0.018097496 -0.51457244 -0.91693616 -0.12854472 -0.11902537
0.031037474 0.017930254 0.29806909 -0.093655154 -0.12179627 -0.13790457 -0.51960492 -0.82318538
-0.51400149 -0.91759574 -0.1220186 -0.13802595 -0.10259245 0.0073885769 0.025103237 0.01189665
-0.12871727 -0.11920565 -0.5191021 -0.82385468 0.024961438 0.011908743 0.16199937 -0.1552327
283216773 -0.060013808 0.088426925 0.010880465 -0.005893671 -0.83371997 -0.63286757 -0.16208534 -0.05660164
0.010620683 -0.0058678053 0.21357673 -0.17107332 -0.16405654 -0.069272362 -0.8362776 -0.54253244
-0.83407712 -0.63371396 -0.16473134 -0.068626985 -0.097414136 0.028470602 0.024435572 0.025994252
-0.16275367 -0.056046326 -0.83670932 -0.5433414 0.024404701 0.026155315 0.065758198 -0.1954049
296703286 0.016500246 0.1061881 -0.026486784 0.011568437 -1.0145255 -0.24664685 -0.17391053 0.021443926
-0.026623609 0.011796498 0.10223553 -0.165553 -0.17027992 0.003467381 -1.017024 -0.082560271
-1.0154048 -0.24752319 -0.16987443 0.0044338405 -0.053931445 0.041792084 0.012305127 0.041094374
-0.173594 0.022230498 -1.0180242 -0.083302677 0.012439017 0.041189373 -0.00061645359 -0.16901466
310189799 0.074661583 0.078510642 -0.01269188 0.050217934 -1.0282414 0.18001013 -0.13883623 0.098176926
-0.012630024 0.050388459 0.059057254 -0.08603932 -0.14692546 0.068154432 -0.90431976 0.40547401
-1.0295023 0.18004115 -0.14545777 0.068293214 0.0047460408 0.031700347 0.0043571163 0.057204992
-0.13770372 0.098318331 -0.90548265 0.40580457 0.0045037214 0.057156485 0.02427654 -0.13134034
323676312 0.09245833 0.045696311 0.0528065 0.0384157 -0.86954594 0.57693428 -0.061219864 0.13287094
0.052755438 0.038551819 0.20818149 -0.011851096 -0.10538208 0.10831491 -0.46018293 0.6956206
-0.87035155 0.57748073 -0.1045592 0.10681924 0.045457907 0.013541427 0.0052938499 0.048707616
-0.06039479 0.13191813 -0.46056631 0.69630027 0.0054592737 0.048555426 0.14210798 -0.21231838
337162825 0.087201104 0.038993798 0.027367486 -0.043183401 -0.56311274 0.87935352 -0.044030689 0.1306078
0.027917806 -0.043175813 0.015034989 -0.45470104 -0.064679362 0.15421116 -0.46293381 0.60210651
-0.56406605 0.88051862 -0.065255567 0.15285401 0.072938636 0.010740479 -0.0086958325 0.040722042
-0.044272684 0.1291185 -0.46371597 0.60284549 -0.0090312371 0.040445298 -0.19011462 -0.322855
350649338 0.10618152 0.038770709 0.00049367081 -0.02988717 -0.15989211 1.0283971 0.025572591 0.15266919
0.00052302796 -0.030235332 -0.20188639 -0.1071621 0.014686327 0.16124643 -0.12918934 0.95247447
-0.15959573 1.0297611 0.012944609 0.16085511 0.098178074 0.0086238179 -0.0076051746 0.012209447
0.023873564 0.15220627 -0.12890252 0.95372933 -0.0078470958 0.012439327 -0.19335659 -0.057742514
364135851 0.12286477 -0.0004268093 0.0034406013 -0.018184412 0.26582938 1.0014035 0.089444242 0.12236734
0.0032891314 -0.018288879 -0.092102133 -0.0067839362 0.076169871 0.13646275 0.34511307 0.90167737
0.26669961 1.002122 0.074992247 0.13791952 0.10812411 -0.011141028 -0.01353478 -0.010572817
0.088227168 0.12367071 0.34591687 0.90226525 -0.01344258 -0.010276504 -0.1407063 0.024990417
377622364 0.099003486 -0.063657455 0.01866827 -0.0090699401 0.64192021 0.80847156 0.1317438 0.075423717
0.018545784 -0.0089379372 -0.10907216 0.050503746 0.12086029 0.087038875 0.72343695 0.6972388
0.64281076 0.80850255 0.12152296 0.088779151 0.079936363 -0.040434401 -0.0072712377 -0.027780641
0.13225432 0.077083051 0.72425038 0.69719505 -0.0069986633 -0.027757425 -0.077396572 0.089713365
391108877 0.038694363 -0.10529386 0.034988988 -0.027495965 0.91009235 0.48345792 0.1506024 0.0098156519
0.035105553 -0.02738693 -0.03429056 0.084406056 0.13844517 0.032936264 0.96047634 0.27157781
0.91057259 0.48293406 0.14024538 0.033148788 0.023022244 -0.048346072 0.0080038598 -0.046118073
0.15208466 0.010188675 0.96080989 0.27107713 0.0081787445 -0.046271719 -0.052617963 0.10187684
404595390 -0.019520525 -0.10723807 0.024944572 -0.057494871 1.02388 0.076920271 0.13851577 -0.054617602
0.025025142 -0.057578385 0.032281015 0.00022384897 0.14032426 -0.022964105 0.96131384 -0.18846104
1.0237379 0.076420277 0.14122616 -0.024354935 -0.028881023 -0.03127417 0.01276949 -0.061091386
0.13931111 -0.055553351 0.96109021 -0.18882751 0.012786359 -0.06123732 -0.066938944 0.0767572
418081903 -0.036772054 -0.088199876 -0.017127965 -0.048314106 0.96687168 -0.3381497 0.077330463 -0.11316743
-0.01721927 -0.048385415 0.072466232 -0.098815866 0.11556857 -0.06836924 0.57614321 -0.61053097
0.96641988 -0.33813012 0.11465099 -0.06948784 -0.051056281 -0.013071168 -0.00014624 -0.051293053
0.076986983 -0.11382763 0.575921 -0.61036175 -0.0001521986 -0.051383357 -0.10020033 0.079150811
431568416 -0.030646984 -0.093176655 -0.040784456 -0.010318475 0.75158405 -0.69821739 0.064995974 -0.096278027
-0.040610876 -0.010455176 -0.1727045 0.060675628 0.090866715 -0.12377587 0.61437041 -0.39417839
0.75143296 -0.69776112 0.089864686 -0.12368004 -0.061101828 -0.011836282 0.0055001443 -0.032747671
0.064041764 -0.096786909 0.61421651 -0.39391842 0.0052554128 -0.032782219 0.061179653 0.21949695
445054929 -0.04954347 -0.10260367 -0.02464772 -0.0021556905 0.40600508 -0.93796778 0.0057116151 -0.13796744
-0.024780022 -0.0021537631 0.044031307 -0.064310975 0.020271719 -0.14229985 0.31339362 -0.87675357
0.4063817 -0.93732888 0.019545309 -0.14118935 -0.074397497 -0.008518707 -0.0026323232 -0.0015624193
0.0050085764 -0.13705485 0.31380257 -0.87622148 -0.002708111 -0.001424906 0.088129118 0.075085945
458541442 -0.081145324 -0.069902346 -0.033454545 -0.00088262185 -0.0032759607 -1.0199366 -0.053635802 -0.12335271
-0.033554845 -0.00086621661 -0.015534129 -0.021672625 -0.039979398 -0.13484575 -0.08664602 -0.93521106
-0.0022015274 -1.0198373 -0.039430864 -0.13339511 -0.069810621 0.010965368 -0.0080363192 0.019998802
-0.053206936 -0.12209032 -0.085649639 -0.93523198 -0.0079328986 0.020071145 0.092634574 -0.034761522
472027955 -0.081050113 -0.0070444271 -0.038751476 -0.00477453 -0.41261548 -0.93364817 -0.10184345 -0.085200422
-0.038735352 -0.0046020076 0.05278074 -0.084273346 -0.083267927 -0.097791582 -0.55112582 -0.79744786
-0.4116466 -0.93458235 -0.081539236 -0.097255364 -0.032042932 0.021461129 -0.019329492 0.033791352
-0.10032282 -0.084806629 -0.55035299 -0.79848909 -0.019236231 0.033716179 0.069002092 -0.06902653
485514468 -0.039435387 0.023592182 -0.049611628 0.0040806225 -0.74900466 -0.68716186 -0.12440656 -0.032398596
-0.049389757 0.0041028354 -0.014816664 -0.17766204 -0.11294678 -0.062664501 -0.79005194 -0.45255464
-0.74896824 -0.688627 -0.11133405 -0.063761882 0.013299734 0.012435511 -0.034451962 0.045028776
-0.12301715 -0.033314869 -0.79027927 -0.45385081 -0.034498092 0.044950899 0.0052478835 -0.091176644
499000981 -0.019218924 0.011948757 -0.033971965 0.024627883 -0.95972729 -0.32911411 -0.13355739 0.021863127
-0.033820417 0.024503835 -0.077525258 -0.15673336 -0.12903336 -0.0098360777 -0.95671403 -0.053821057
-0.96073604 -0.3303889 -0.1287853 -0.012030214 0.039785683 -0.018333364 -0.034249928 0.056536257
-0.13332051 0.019974135 -0.95790398 -0.054735065 -0.03436261 0.056467533 0.037242819 -0.13570677
512487494 -0.046412222 -0.0052718148 -0.012626215 0.0074575944 -1.0091236 0.083219826 -0.096340492 0.088627309
-0.012707181 0.007134269 -0.26472843 -0.19013587 -0.11914369 0.041345883 -0.75605506 0.43509167
-1.0107882 0.082689375 -0.12085805 0.039821066 0.036763221 -0.03755711 -0.015918283 0.051781386
-0.097591981 0.087405093 -0.75752604 0.43516394 -0.016032279 0.051982537 -0.11822909 -0.13582511
525974007 -0.084032439 0.020656765 -0.011160756 0.043750953 -0.89018095 0.48114872 -0.048848402 0.064124599
-0.011393806 0.044147417 -0.29840955 0.35213262 -0.099021845 0.085338205 -0.45679057 0.21944459
-0.89235306 0.48178911 -0.10073398 0.085541435 0.019406732 -0.034212139 -0.0064064963 0.024826705
-0.05035834 0.06357751 -0.45802525 0.21968801 -0.0062966524 0.024795458 0.023116354 0.051378164
539460520 -0.08274322 0.049293544 0.018760746 0.016781459 -0.61863071 0.7958681 -0.032669913 0.11345062
0.018781731 0.016902553 -0.12072586 0.15118498 -0.046650898 0.11769465 -0.52212608 0.72000259
-0.61994797 0.79786038 -0.047837727 0.11917008 -0.00098278467 -0.018227844 0.007351622 0.0060017537
-0.033935238 0.11477521 -0.52326792 0.72181386 0.0073826862 0.006043762 -0.052768521 -0.025114618
552947033 -0.067287803 0.053481221 0.020312803 0.011933355 -0.24371204 0.97543687 0.019560946 0.12033122
0.020313675 0.011994681 -0.12781623 0.07360623 0.0028008819 0.12452174 -0.1101232 0.94551337
-0.2432349 0.97805989 0.0033050366 0.12638319 -0.031733561 -0.0026019579 0.018494431 -0.0098676812
0.01996479 0.12201221 -0.10943261 0.94792253 0.018564371 -0.0098893978 -0.09860418 0.038270485
566433546 -0.068307601 0.044575486 0.015761081 0.031787638 0.16401766 0.98757422 0.075050667 0.093561299
0.015935317 0.031894986 -0.20874684 0.14809528 0.052855544 0.10601443 0.34550387 0.84573799
0.16628361 0.98903096 0.054779753 0.10660939 -0.061440319 0.026076406 0.027130488 -0.018328683
0.076573297 0.094156221 0.34775922 0.84664148 0.027161665 -0.018496873 -0.1057687 0.14823787
579920059 -0.082219034 0.067186922 0.030474413 0.035169832 0.54465044 0.83496213 0.10116622 0.058810778
0.030690359 0.035040516 -0.14136624 0.25099057 0.088156432 0.079723343 0.6366086 0.64202869
0.54687691 0.83422053 0.089861736 0.078395076 -0.087073989 0.062526584 0.040528346 -0.033071779
0.10266443 0.057832021 0.6384539 0.64103776 0.040422954 -0.03315993 -0.070847467 0.15705499
593406572 -0.059435982 0.11933953 0.017953405 0.023766095 0.82849646 0.54434383 0.12692307 0.0060163718
0.018057721 0.023466682 -0.085452624 0.34732059 0.11601 0.036546569 0.87685925 0.2630831
0.8286525 0.54242295 0.11588629 0.033942148 -0.081918463 0.10249634 0.03732169 -0.043342248
0.12707967 0.0039864406 0.87659228 0.26138121 0.036997553 -0.043311395 -0.023803309 0.26585296
606893085 0.013602801 0.15701292 0.0053136838 0.034118824 0.97203261 0.16899288 0.1088469 -0.060365185
0.005077919 0.033701237 0.10988375 0.46711519 0.11864837 -0.017167347 0.83241212 -0.18418249
0.97088814 0.16871938 0.11610076 -0.018574584 -0.040677555 0.12209915 0.024294471 -0.041456848
0.10722283 -0.061886124 0.8314901 -0.1841242 0.024166342 -0.040853903 0.18741018 0.26963928
620379598 0.10479388 0.14701277 0.042862244 0.035051193 0.95809263 -0.22974128 0.038654141 -0.079718277
0.042149685 0.03539633 0.59174585 0.37374145 0.099182487 -0.059739105 0.43951604 -0.34702188
0.95804298 -0.2293568 0.097255439 -0.058141824 0.017795894 0.11066816 0.0066189598 -0.031548083
0.036253482 -0.079461358 0.43940169 -0.34687266 0.0077527557 -0.031642508 0.4048087 -0.11793089
633866111 0.15797479 0.10323831 0.0051664445 -0.015442548 0.78677124 -0.5958612 0.052747823 -0.087136656
0.0053454246 -0.015201275 0.30062327 -0.092688233 0.063110359 -0.10046401 0.71343106 -0.47966748
0.78673846 -0.59483021 0.062185757 -0.097894192 0.075044215 0.076634772 -0.0027594659 -0.0079743732
0.051558193 -0.084443167 0.71335262 -0.47874516 -0.0030172453 -0.0082683712 -0.019349929 -0.060090929
647352624 0.19120048 0.067613699 0.010018339 -0.012583756 0.47869751 -0.86105323 -0.0013645543 -0.11144292
0.010093618 -0.012491716 0.28941223 0.02793245 0.014851198 -0.11013958 0.32381612 -0.87465185
0.4795292 -0.86043292 0.016938725 -0.1078212 0.12341727 0.032255098 -0.014929003 -0.0015153872
0.00041335821 -0.10904814 0.32468694 -0.87412244 -0.014931719 -0.0016482631 0.16265185 -0.0096372161
660839137 0.21885218 0.025835305 0.011209064 -0.036699668 0.089607775 -0.97570455 -0.047869757 -0.094023913
